
**** 07/20/122 12:22:11 ****** NT PSpice 8.0 (July 1997) ****** ID# 98242 ****

 * C:\Users\sergi\OneDrive\Escritorio\Comedero\prueba_emergencia.sch


 ****     CIRCUIT DESCRIPTION


******************************************************************************




* Schematics Version 8.0 - July 1997
* Wed Jul 20 12:22:11 2022



** Analysis setup **
.tran 20ns 2s
.OP 


* From [SCHEMATICS NETLIST] section of msim.ini:
.lib "u:\Userlib\DTE_DIGITAL.lib"
.lib "u:\UserLib\DTE_1.lib"
.lib "nom.lib"

.INC "prueba_emergencia.net"

**** INCLUDING prueba_emergencia.net ****
* Schematics Netlist *



C_C1         $N_0001 0  470u  
D_D1         $N_0002 $N_0001 D1N4148 
D_D2         $N_0003 $N_0001 D1N4148 
V_V1         $N_0003 $N_0004 12V
X_U2         $N_0004 0 Sw_tOpen PARAMS: tOpen=1 ttran=1u Rclosed=0.01
+  Ropen=1Meg
R_R1         0 $N_0001  60  
V_V2         +6V 0 6
Q_Q1         $N_0002 $N_0003 +6V BC557B 

**** RESUMING prueba_emergencia.cir ****
.INC "prueba_emergencia.als"



**** INCLUDING prueba_emergencia.als ****
* Schematics Aliases *

.ALIASES
C_C1            C1(1=$N_0001 2=0 )
D_D1            D1(1=$N_0002 2=$N_0001 )
D_D2            D2(1=$N_0003 2=$N_0001 )
V_V1            V1(+=$N_0003 -=$N_0004 )
X_U2            U2(1=$N_0004 2=0 )
R_R1            R1(1=0 2=$N_0001 )
V_V2            V2(+=+6V -=0 )
Q_Q1            Q1(c=$N_0002 b=$N_0003 e=+6V )
_    _(+6V=+6V)
.ENDALIASES


**** RESUMING prueba_emergencia.cir ****
.probe


.END

**** 07/20/122 12:22:11 ****** NT PSpice 8.0 (July 1997) ****** ID# 98242 ****

 * C:\Users\sergi\OneDrive\Escritorio\Comedero\prueba_emergencia.sch


 ****     Diode MODEL PARAMETERS


******************************************************************************




               D1N4148         
          IS    2.682000E-09 
           N    1.836        
         ISR    1.565000E-09 
         IKF     .04417      
          BV  100            
         IBV  100.000000E-06 
          RS     .5664       
          TT   11.540000E-09 
         CJO    4.000000E-12 
          VJ     .5          
           M     .3333       


**** 07/20/122 12:22:11 ****** NT PSpice 8.0 (July 1997) ****** ID# 98242 ****

 * C:\Users\sergi\OneDrive\Escritorio\Comedero\prueba_emergencia.sch


 ****     BJT MODEL PARAMETERS


******************************************************************************




               BC557B          
               PNP             
          IS    1.020000E-15 
          BF  306.5          
          NF    1            
         VAF   52.31         
         IKF     .09185      
         ISE   10.270000E-15 
          NE    1.764        
          BR    6.48         
          NR    1            
         IKR     .5584       
         ISC    1.472000E-15 
          NC    1.294        
          NK     .5351       
          RC    1.086        
         CJE   30.000000E-12 
         VJE     .5          
         MJE     .3333       
         CJC    9.810000E-12 
         VJC     .4865       
         MJC     .332        
          TF  611.600000E-12 
         XTF   26.05         
         VTF   10            
         ITF    1.373        
          TR   10.000000E-09 
         XTB    1.5          


**** 07/20/122 12:22:11 ****** NT PSpice 8.0 (July 1997) ****** ID# 98242 ****

 * C:\Users\sergi\OneDrive\Escritorio\Comedero\prueba_emergencia.sch


 ****     Voltage Controlled Switch MODEL PARAMETERS


******************************************************************************




               X_U2.Smod       
         RON     .01         
        ROFF    1.000000E+06 
         VON    1            
        VOFF    0            


**** 07/20/122 12:22:11 ****** NT PSpice 8.0 (July 1997) ****** ID# 98242 ****

 * C:\Users\sergi\OneDrive\Escritorio\Comedero\prueba_emergencia.sch


 ****     SMALL SIGNAL BIAS SOLUTION       TEMPERATURE =   27.000 DEG C


******************************************************************************



 NODE   VOLTAGE     NODE   VOLTAGE     NODE   VOLTAGE     NODE   VOLTAGE


(  +6V)    6.0000  (X_U2.3)    1.0000 ($N_0001)   10.9960                       

($N_0002)   10.9960                   ($N_0003)   11.9980                       

($N_0004)    -.0018                   




    VOLTAGE SOURCE CURRENTS
    NAME         CURRENT

    V_V1        -1.833E-01
    V_V2         5.122E-12
    X_U2.V1     -1.000E-12

    TOTAL POWER DISSIPATION   2.20E+00  WATTS


**** 07/20/122 12:22:11 ****** NT PSpice 8.0 (July 1997) ****** ID# 98242 ****

 * C:\Users\sergi\OneDrive\Escritorio\Comedero\prueba_emergencia.sch


 ****     OPERATING POINT INFORMATION      TEMPERATURE =   27.000 DEG C


******************************************************************************






**** DIODES


NAME         D_D1        D_D2      
MODEL        D1N4148     D1N4148   
ID          -4.94E-12    1.83E-01 
VD          -5.69E-05    1.00E+00 
REQ          1.15E+07    3.93E-01 
CAP          4.00E-12    2.94E-08 


**** BIPOLAR JUNCTION TRANSISTORS


NAME         Q_Q1      
MODEL        BC557B    
IB           1.86E-13 
IC           4.94E-12 
VBE          6.00E+00 
VBC          1.00E+00 
VCE          5.00E+00 
BETADC       2.65E+01 
GM           9.55E-14 
RPI          3.07E+14 
RX           0.00E+00 
RO           1.08E+12 
CBE          1.28E-11 
CBC          6.77E-12 
CJS          0.00E+00 
BETAAC       2.93E+01 
CBX          0.00E+00 
FT           7.78E-04 




**** VOLTAGE CONTROLLED SWITCHES


NAME         X_U2.S1   
MODEL        X_U2.Smod 
I LOAD      -1.83E-01 
V LOAD      -1.83E-03 
R LOAD       1.00E-02 
V CTRL       1.00E+00 
**** 07/20/122 12:22:11 ****** NT PSpice 8.0 (July 1997) ****** ID# 98242 ****

 * C:\Users\sergi\OneDrive\Escritorio\Comedero\prueba_emergencia.sch


 ****     INITIAL TRANSIENT SOLUTION       TEMPERATURE =   27.000 DEG C


******************************************************************************



 NODE   VOLTAGE     NODE   VOLTAGE     NODE   VOLTAGE     NODE   VOLTAGE


(  +6V)    6.0000  (X_U2.3)    1.0000 ($N_0001)   10.9960                       

($N_0002)   10.9960                   ($N_0003)   11.9980                       

($N_0004)    -.0018                   




    VOLTAGE SOURCE CURRENTS
    NAME         CURRENT

    V_V1        -1.833E-01
    V_V2         5.122E-12
    X_U2.V1     -1.000E-12

    TOTAL POWER DISSIPATION   2.20E+00  WATTS



          JOB CONCLUDED

          TOTAL JOB TIME             .17
