
**** 07/19/122 22:28:10 ****** NT PSpice 8.0 (July 1997) ****** ID# 98242 ****

 * C:\Users\sergi\OneDrive\Escritorio\PRUEBA.sch


 ****     CIRCUIT DESCRIPTION


******************************************************************************




* Schematics Version 8.0 - July 1997
* Tue Jul 19 22:28:01 2022



** Analysis setup **
.OP 


* From [SCHEMATICS NETLIST] section of msim.ini:
.lib "u:\Userlib\DTE_DIGITAL.lib"
.lib "u:\UserLib\DTE_1.lib"
.lib "nom.lib"

.INC "PRUEBA.net"

**** INCLUDING PRUEBA.net ****
* Schematics Netlist *



R_R1         $N_0002 $N_0001  47K  
R_R2         0 $N_0001  3K  
V_V1         $N_0002 0 5v

**** RESUMING PRUEBA.cir ****
.INC "PRUEBA.als"



**** INCLUDING PRUEBA.als ****
* Schematics Aliases *

.ALIASES
R_R1            R1(1=$N_0002 2=$N_0001 )
R_R2            R2(1=0 2=$N_0001 )
V_V1            V1(+=$N_0002 -=0 )
.ENDALIASES


**** RESUMING PRUEBA.cir ****
.probe


.END

**** 07/19/122 22:28:10 ****** NT PSpice 8.0 (July 1997) ****** ID# 98242 ****

 * C:\Users\sergi\OneDrive\Escritorio\PRUEBA.sch


 ****     SMALL SIGNAL BIAS SOLUTION       TEMPERATURE =   27.000 DEG C


******************************************************************************



 NODE   VOLTAGE     NODE   VOLTAGE     NODE   VOLTAGE     NODE   VOLTAGE


($N_0001)     .3000                   ($N_0002)    5.0000                   




    VOLTAGE SOURCE CURRENTS
    NAME         CURRENT

    V_V1        -1.000E-04

    TOTAL POWER DISSIPATION   5.00E-04  WATTS


**** 07/19/122 22:28:10 ****** NT PSpice 8.0 (July 1997) ****** ID# 98242 ****

 * C:\Users\sergi\OneDrive\Escritorio\PRUEBA.sch


 ****     OPERATING POINT INFORMATION      TEMPERATURE =   27.000 DEG C


******************************************************************************





          JOB CONCLUDED

          TOTAL JOB TIME             .02
